#Parameters = {L=149.416; Lf=38; Lg=192.8032053872; W=102.45668571429; Wf=3.1; Wg=107.84389110149; ataslengkung=17.811178807947; bawahlengkung=49.475496688742; dgs=160; h=0.89786756453423; sampingdgs=0; skala=8.5380571428571; t=0.019640852974186}
#"Frequency / MHz"	"S1,1 [Mag]"	"S1,1 [Pha in deg.]"	"Ref.Imp. [Mag]"	"Ref.Imp. [Pha in deg.]"
#---------------------------------------------------------------------------------------------
233.00000000000	0.91442358426763	-86.818855556002	35.034201428197	0.0000000000000
233.39999389648	0.91400538270235	-87.136957811909	35.034201428197	0.0000000000000
233.80000305176	0.91358690649537	-87.455108229331	35.034201428197	0.0000000000000
234.19999694824	0.91316812500532	-87.773326800698	35.034201428197	0.0000000000000
234.60000610352	0.91274902433694	-88.091613605515	35.034201428197	0.0000000000000
235.00000000000	0.91232940482421	-88.409982224605	35.034201428197	0.0000000000000
235.39999389648	0.91190954998578	-88.728439830968	35.034201428197	0.0000000000000
235.80000305176	0.91148909098851	-89.046986146354	35.034201428197	0.0000000000000
236.19999694824	0.91106831126294	-89.365635041029	35.034201428197	0.0000000000000
236.60000610352	0.91064707848250	-89.684427290781	35.034201428197	0.0000000000000
237.00000000000	0.91022521408510	-90.003301485823	35.034201428197	0.0000000000000
237.39999389648	0.90980288416048	-90.322305449511	35.034201428197	0.0000000000000
237.80000305176	0.90937984738293	-90.641452878857	35.034201428197	0.0000000000000
238.19999694824	0.90895622566715	-90.960764276085	35.034201428197	0.0000000000000
238.60000610352	0.90853189411640	-91.280219045286	35.034201428197	0.0000000000000
239.00000000000	0.90810685388480	-91.599830894083	35.034201428197	0.0000000000000
239.39999389648	0.90768103936033	-91.919593007168	35.034201428197	0.0000000000000
239.80000305176	0.90725440671256	-92.239539448538	35.034201428197	0.0000000000000
240.19999694824	0.90682683941857	-92.559670490109	35.034201428197	0.0000000000000
240.60000610352	0.90639836054556	-92.880013254484	35.034201428197	0.0000000000000
241.00000000000	0.90596889356288	-93.200540183414	35.034201428197	0.0000000000000
241.39999389648	0.90553834511230	-93.521279082632	35.034201428197	0.0000000000000
241.80000305176	0.90510666031678	-93.842229706653	35.034201428197	0.0000000000000
242.19999694824	0.90467379116972	-94.163398969891	35.034201428197	0.0000000000000
242.60000610352	0.90423970725700	-94.484807069114	35.034201428197	0.0000000000000
243.00000000000	0.90380433076195	-94.806434064953	35.034201428197	0.0000000000000
243.39999389648	0.90336757218523	-95.128299993379	35.034201428197	0.0000000000000
243.80000305176	0.90292937906345	-95.450445788546	35.034201428197	0.0000000000000
244.19999694824	0.90248965236715	-95.772837357602	35.034201428197	0.0000000000000
244.60000610352	0.90204832561310	-96.095468014576	35.034201428197	0.0000000000000
245.00000000000	0.90160538938337	-96.418399362595	35.034201428197	0.0000000000000
245.39999389648	0.90116059098929	-96.741583528571	35.034201428197	0.0000000000000
245.80000305176	0.90071408576159	-97.065068447722	35.034201428197	0.0000000000000
246.19999694824	0.90026559998326	-97.388860680721	35.034201428197	0.0000000000000
246.60000610352	0.89981525349389	-97.712925551872	35.034201428197	0.0000000000000
247.00000000000	0.89936276395883	-98.037297355645	35.034201428197	0.0000000000000
247.39999389648	0.89890814330208	-98.361977042492	35.034201428197	0.0000000000000
247.80000305176	0.89845132953752	-98.686985526650	35.034201428197	0.0000000000000
248.19999694824	0.89799211680736	-99.012307871163	35.034201428197	0.0000000000000
248.60000610352	0.89753060513675	-99.337957023172	35.034201428197	0.0000000000000
249.00000000000	0.89706654262279	-99.663948751946	35.034201428197	0.0000000000000
249.39999389648	0.89660000379318	-99.990240532483	35.034201428197	0.0000000000000
249.80000305176	0.89613073507797	-100.31693567410	35.034201428197	0.0000000000000
250.19999694824	0.89565869633336	-100.64393034551	35.034201428197	0.0000000000000
250.60000610352	0.89518381064514	-100.97132170221	35.034201428197	0.0000000000000
251.00000000000	0.89470602303317	-101.29904780958	35.034201428197	0.0000000000000
251.39999389648	0.89422519879114	-101.62714301341	35.034201428197	0.0000000000000
251.80000305176	0.89374121938865	-101.95560675291	35.034201428197	0.0000000000000
252.19999694824	0.89325403736880	-102.28446017898	35.034201428197	0.0000000000000
252.60000610352	0.89276358432618	-102.61368188247	35.034201428197	0.0000000000000
253.00000000000	0.89226961751418	-102.94330700607	35.034201428197	0.0000000000000
253.39999389648	0.89177220838934	-103.27332035705	35.034201428197	0.0000000000000
253.80000305176	0.89127122634755	-103.60370378779	35.034201428197	0.0000000000000
254.19999694824	0.89076646170686	-103.93451653781	35.034201428197	0.0000000000000
254.60000610352	0.89025788801226	-104.26571968566	35.034201428197	0.0000000000000
255.00000000000	0.88974548895634	-104.59732645317	35.034201428197	0.0000000000000
255.39999389648	0.88922899387325	-104.92936254963	35.034201428197	0.0000000000000
255.80000305176	0.88870841383033	-105.26178764920	35.034201428197	0.0000000000000
256.20001220703	0.88818366201689	-105.59464269624	35.034201428197	0.0000000000000
256.60000610352	0.88765460310753	-105.92795505126	35.034201428197	0.0000000000000
257.00000000000	0.88712114720527	-106.26166449075	35.034201428197	0.0000000000000
257.39999389648	0.88658315108315	-106.59579885729	35.034201428197	0.0000000000000
257.79998779297	0.88604057562270	-106.93039351702	35.034201428197	0.0000000000000
258.20001220703	0.88549331051348	-107.26541502408	35.034201428197	0.0000000000000
258.60000610352	0.88494116620876	-107.60086787475	35.034201428197	0.0000000000000
259.00000000000	0.88438406871383	-107.93680524059	35.034201428197	0.0000000000000
259.39999389648	0.88382201424404	-108.27314315805	35.034201428197	0.0000000000000
259.79998779297	0.88325486086906	-108.60995896523	35.034201428197	0.0000000000000
260.20001220703	0.88268247104984	-108.94724301072	35.034201428197	0.0000000000000
260.60000610352	0.88210473952775	-109.28494608638	35.034201428197	0.0000000000000
261.00000000000	0.88152164610869	-109.62314211100	35.034201428197	0.0000000000000
261.39999389648	0.88093288529589	-109.96177032601	35.034201428197	0.0000000000000
261.79998779297	0.88033869164996	-110.30088087131	35.034201428197	0.0000000000000
262.20001220703	0.87973866572434	-110.64047745434	35.034201428197	0.0000000000000
262.60000610352	0.87913276315633	-110.98050567488	35.034201428197	0.0000000000000
263.00000000000	0.87852099864224	-111.32105303957	35.034201428197	0.0000000000000
263.39999389648	0.87790312436667	-111.66202237720	35.034201428197	0.0000000000000
263.79998779297	0.87727919742965	-112.00351761507	35.034201428197	0.0000000000000
264.20001220703	0.87664896346558	-112.34546484735	35.034201428197	0.0000000000000
264.60000610352	0.87601237430587	-112.68789809706	35.034201428197	0.0000000000000
265.00000000000	0.87536942101458	-113.03080631305	35.034201428197	0.0000000000000
265.39999389648	0.87471995625805	-113.37420776559	35.034201428197	0.0000000000000
265.79998779297	0.87406384459708	-113.71809313307	35.034201428197	0.0000000000000
266.20001220703	0.87340098090721	-114.06245872922	35.034201428197	0.0000000000000
266.60000610352	0.87273127053857	-114.40732216552	35.034201428197	0.0000000000000
267.00000000000	0.87205471845070	-114.75266825469	35.034201428197	0.0000000000000
267.39999389648	0.87137105711031	-115.09850945890	35.034201428197	0.0000000000000
267.79998779297	0.87068034626942	-115.44483991583	35.034201428197	0.0000000000000
268.20001220703	0.86998245185057	-115.79166411105	35.034201428197	0.0000000000000
268.60000610352	0.86927715774277	-116.13899384031	35.034201428197	0.0000000000000
269.00000000000	0.86856456966947	-116.48681327256	35.034201428197	0.0000000000000
269.39999389648	0.86784439933904	-116.83512593238	35.034201428197	0.0000000000000
269.79998779297	0.86711670210050	-117.18392862091	35.034201428197	0.0000000000000
270.20001220703	0.86638136116681	-117.53323947887	35.034201428197	0.0000000000000
270.60000610352	0.86563821539399	-117.88305412088	35.034201428197	0.0000000000000
271.00000000000	0.86488719613100	-118.23334711936	35.034201428197	0.0000000000000
271.39999389648	0.86412831688783	-118.58414600254	35.034201428197	0.0000000000000
271.79998779297	0.86336128300861	-118.93546516451	35.034201428197	0.0000000000000
272.20001220703	0.86258625272527	-119.28725970975	35.034201428197	0.0000000000000
272.60000610352	0.86180296995949	-119.63957457202	35.034201428197	0.0000000000000
273.00000000000	0.86101145979980	-119.99236721548	35.034201428197	0.0000000000000
273.39999389648	0.86021150488996	-120.34567962199	35.034201428197	0.0000000000000
273.79998779297	0.85940317072414	-120.69948358214	35.034201428197	0.0000000000000
274.20001220703	0.85858619806894	-121.05379344224	35.034201428197	0.0000000000000
274.60000610352	0.85776067867361	-121.40859355814	35.034201428197	0.0000000000000
275.00000000000	0.85692647413936	-121.76391246606	35.034201428197	0.0000000000000
275.39999389648	0.85608337571767	-122.11972586560	35.034201428197	0.0000000000000
275.79998779297	0.85523161919972	-122.47602818356	35.034201428197	0.0000000000000
276.20001220703	0.85437076737198	-122.83284001986	35.034201428197	0.0000000000000
276.60000610352	0.85350096933456	-123.19015492135	35.034201428197	0.0000000000000
277.00000000000	0.85262207075567	-123.54795787564	35.034201428197	0.0000000000000
277.39999389648	0.85173404219708	-123.90626916004	35.034201428197	0.0000000000000
277.79998779297	0.85083673513141	-124.26506148824	35.034201428197	0.0000000000000
278.20001220703	0.84993013478410	-124.62437173263	35.034201428197	0.0000000000000
278.60000610352	0.84901419732125	-124.98417014045	35.034201428197	0.0000000000000
279.00000000000	0.84808879632606	-125.34446233200	35.034201428197	0.0000000000000
279.39999389648	0.84715390036248	-125.70524955162	35.034201428197	0.0000000000000
279.79998779297	0.84620944384821	-126.06653720121	35.034201428197	0.0000000000000
280.20001220703	0.84525530099139	-126.42831875841	35.034201428197	0.0000000000000
280.60000610352	0.84429145866062	-126.79059203622	35.034201428197	0.0000000000000
281.00000000000	0.84331789881989	-127.15335495067	35.034201428197	0.0000000000000
281.39999389648	0.84233447486386	-127.51661454354	35.034201428197	0.0000000000000
281.79998779297	0.84134105433327	-127.88034654601	35.034201428197	0.0000000000000
282.20001220703	0.84033781091146	-128.24458734925	35.034201428197	0.0000000000000
282.60000610352	0.83932450978604	-128.60929193489	35.034201428197	0.0000000000000
283.00000000000	0.83830111749927	-128.97451855645	35.034201428197	0.0000000000000
283.39999389648	0.83726762488621	-129.34020420399	35.034201428197	0.0000000000000
283.79998779297	0.83622396218110	-129.70637246741	35.034201428197	0.0000000000000
284.20001220703	0.83517007134882	-130.07304149021	35.034201428197	0.0000000000000
284.60000610352	0.83410582767970	-130.44017993996	35.034201428197	0.0000000000000
285.00000000000	0.83303134452739	-130.80779570079	35.034201428197	0.0000000000000
285.39999389648	0.83194647578628	-131.17590120493	35.034201428197	0.0000000000000
285.79998779297	0.83085108571639	-131.54449768247	35.034201428197	0.0000000000000
286.20001220703	0.82974523464343	-131.91354663526	35.034201428197	0.0000000000000
286.60000610352	0.82862891997940	-132.28307337751	35.034201428197	0.0000000000000
287.00000000000	0.82750190518148	-132.65307938968	35.034201428197	0.0000000000000
287.39999389648	0.82636445805843	-133.02356202938	35.034201428197	0.0000000000000
287.79998779297	0.82521621705042	-133.39449652932	35.034201428197	0.0000000000000
288.20001220703	0.82405738215218	-133.76590647061	35.034201428197	0.0000000000000
288.60000610352	0.82288765553475	-134.13779713608	35.034201428197	0.0000000000000
289.00000000000	0.82170732958198	-134.51015129326	35.034201428197	0.0000000000000
289.39999389648	0.82051605295853	-134.88295989342	35.034201428197	0.0000000000000
289.79998779297	0.81931401584834	-135.25624089768	35.034201428197	0.0000000000000
290.20001220703	0.81810110925153	-135.62997394557	35.034201428197	0.0000000000000
290.60000610352	0.81687725907069	-136.00415946307	35.034201428197	0.0000000000000
291.00000000000	0.81564252205313	-136.37882450061	35.034201428197	0.0000000000000
291.39999389648	0.81439672498924	-136.75394036964	35.034201428197	0.0000000000000
291.79998779297	0.81313998798826	-137.12950453246	35.034201428197	0.0000000000000
292.20001220703	0.81187216523454	-137.50550316572	35.034201428197	0.0000000000000
292.60000610352	0.81059338729757	-137.88196939372	35.034201428197	0.0000000000000
293.00000000000	0.80930350127053	-138.25888971031	35.034201428197	0.0000000000000
293.39999389648	0.80800247842897	-138.63625924927	35.034201428197	0.0000000000000
293.79998779297	0.80669040046448	-139.01406363556	35.034201428197	0.0000000000000
294.20001220703	0.80536715757422	-139.39231635526	35.034201428197	0.0000000000000
294.60000610352	0.80403274138045	-139.77100953597	35.034201428197	0.0000000000000
295.00000000000	0.80268714302501	-140.15014131231	35.034201428197	0.0000000000000
295.39999389648	0.80133038571073	-140.52970658013	35.034201428197	0.0000000000000
295.79998779297	0.79996241910054	-140.90971283397	35.034201428197	0.0000000000000
296.20001220703	0.79858319064416	-141.29015406623	35.034201428197	0.0000000000000
296.60000610352	0.79719284587728	-141.67103331883	35.034201428197	0.0000000000000
297.00000000000	0.79579113424224	-142.05234773492	35.034201428197	0.0000000000000
297.39999389648	0.79437818777967	-142.43408670113	35.034201428197	0.0000000000000
297.79998779297	0.79295403431971	-142.81623410697	35.034201428197	0.0000000000000
298.20001220703	0.79151862595912	-143.19883756781	35.034201428197	0.0000000000000
298.60000610352	0.79007189257380	-143.58184662595	35.034201428197	0.0000000000000
299.00000000000	0.78861392402148	-143.96526587490	35.034201428197	0.0000000000000
299.39999389648	0.78714465653186	-144.34913734232	35.034201428197	0.0000000000000
299.79998779297	0.78566407493798	-144.73340168415	35.034201428197	0.0000000000000
300.20001220703	0.78417230779677	-145.11809548300	35.034201428197	0.0000000000000
300.60000610352	0.78266914009052	-145.50319266725	35.034201428197	0.0000000000000
301.00000000000	0.78115478361832	-145.88871312516	35.034201428197	0.0000000000000
301.39999389648	0.77962920429722	-146.27464854118	35.034201428197	0.0000000000000
301.79998779297	0.77809220952667	-146.66097547445	35.034201428197	0.0000000000000
302.20001220703	0.77654403077177	-147.04771785690	35.034201428197	0.0000000000000
302.60000610352	0.77498461319133	-147.43486738190	35.034201428197	0.0000000000000
303.00000000000	0.77341397847251	-147.82242237159	35.034201428197	0.0000000000000
303.39999389648	0.77183202517615	-148.21037831912	35.034201428197	0.0000000000000
303.79998779297	0.77023887499670	-148.59872836216	35.034201428197	0.0000000000000
304.20001220703	0.76863454945225	-148.98747676406	35.034201428197	0.0000000000000
304.60000610352	0.76701895409220	-149.37663317528	35.034201428197	0.0000000000000
305.00000000000	0.76539226257969	-149.76617282524	35.034201428197	0.0000000000000
305.39999389648	0.76375435218564	-150.15610722671	35.034201428197	0.0000000000000
305.79998779297	0.76210530524727	-150.54643898395	35.034201428197	0.0000000000000
306.20001220703	0.76044509525918	-150.93716618600	35.034201428197	0.0000000000000
306.60000610352	0.75877384183469	-151.32827529179	35.034201428197	0.0000000000000
307.00000000000	0.75709146038508	-151.71977011018	35.034201428197	0.0000000000000
307.39999389648	0.75539799846969	-152.11164477096	35.034201428197	0.0000000000000
307.79998779297	0.75369350751133	-152.50390135796	35.034201428197	0.0000000000000
308.20001220703	0.75197799209491	-152.89655806592	35.034201428197	0.0000000000000
308.60000610352	0.75025147283939	-153.28958030033	35.034201428197	0.0000000000000
309.00000000000	0.74851395515113	-153.68298410000	35.034201428197	0.0000000000000
309.39999389648	0.74676561396988	-154.07675887652	35.034201428197	0.0000000000000
309.79998779297	0.74500626317377	-154.47092889172	35.034201428197	0.0000000000000
310.20001220703	0.74323609951114	-154.86545660243	35.034201428197	0.0000000000000
310.60000610352	0.74145501796559	-155.26036206615	35.034201428197	0.0000000000000
311.00000000000	0.73966319570465	-155.65564007770	35.034201428197	0.0000000000000
311.39999389648	0.73786048159157	-156.05128403360	35.034201428197	0.0000000000000
311.79998779297	0.73604709899692	-156.44730053102	35.034201428197	0.0000000000000
312.20001220703	0.73422302116113	-156.84366976508	35.034201428197	0.0000000000000
312.60000610352	0.73238819523904	-157.24043451840	35.034201428197	0.0000000000000
313.00000000000	0.73054275587037	-157.63754270907	35.034201428197	0.0000000000000
313.39999389648	0.72868674433827	-158.03501753397	35.034201428197	0.0000000000000
313.79998779297	0.72682016967634	-158.43285087706	35.034201428197	0.0000000000000
314.20001220703	0.72494303239686	-158.83103446724	35.034201428197	0.0000000000000
314.60000610352	0.72305549741611	-159.22959034541	35.034201428197	0.0000000000000
315.00000000000	0.72115747309824	-159.62852767379	35.034201428197	0.0000000000000
315.39999389648	0.71924902304868	-160.02777959181	35.034201428197	0.0000000000000
315.79998779297	0.71733033649366	-160.42741410231	35.034201428197	0.0000000000000
316.20001220703	0.71540133433842	-160.82740553355	35.034201428197	0.0000000000000
316.60000610352	0.71346201654119	-161.22773566924	35.034201428197	0.0000000000000
317.00000000000	0.71151248011678	-161.62843572437	35.034201428197	0.0000000000000
317.39999389648	0.70955287175286	-162.02946348910	35.034201428197	0.0000000000000
317.79998779297	0.70758311657256	-162.43085932201	35.034201428197	0.0000000000000
318.20001220703	0.70560335044762	-162.83261093368	35.034201428197	0.0000000000000
318.60000610352	0.70361356676789	-163.23469085562	35.034201428197	0.0000000000000
319.00000000000	0.70161386866124	-163.63714018473	35.034201428197	0.0000000000000
319.39999389648	0.69960424522795	-164.03992874168	35.034201428197	0.0000000000000
319.79998779297	0.69758475534524	-164.44307364350	35.034201428197	0.0000000000000
320.20001220703	0.69555548331232	-164.84654675522	35.034201428197	0.0000000000000
320.60000610352	0.69351656557622	-165.25037553444	35.034201428197	0.0000000000000
321.00000000000	0.69146790297919	-165.65454530657	35.034201428197	0.0000000000000
321.39999389648	0.68940966824368	-166.05907015640	35.034201428197	0.0000000000000
321.79998779297	0.68734190609469	-166.46392294654	35.034201428197	0.0000000000000
322.20001220703	0.68526455553830	-166.86913052624	35.034201428197	0.0000000000000
322.60000610352	0.68317788784143	-167.27466611199	35.034201428197	0.0000000000000
323.00000000000	0.68108183543782	-167.68055619328	35.034201428197	0.0000000000000
323.39999389648	0.67897637124392	-168.08678844997	35.034201428197	0.0000000000000
323.79998779297	0.67686185242654	-168.49336359020	35.034201428197	0.0000000000000
324.20001220703	0.67473809002378	-168.90027879165	35.034201428197	0.0000000000000
324.60000610352	0.67260512155944	-169.30753592634	35.034201428197	0.0000000000000
325.00000000000	0.67046316621585	-169.71513439283	35.034201428197	0.0000000000000
325.39999389648	0.66831228296473	-170.12305959523	35.034201428197	0.0000000000000
325.79998779297	0.66615240034921	-170.53132723912	35.034201428197	0.0000000000000
326.20001220703	0.66398369385933	-170.93995016465	35.034201428197	0.0000000000000
326.60000610352	0.66180626354818	-171.34891439172	35.034201428197	0.0000000000000
